[信息] 2021-01-09 09:00:40.009 thread:[005] [发送]01 03 00 06 00 07 E4 09
[信息] 2021-01-09 09:00:40.010 thread:[005] [返回]01 03 0E 00 06 00 07 00 08 00 09 00 0A 00 0B 00 0C EB A1
[信息] 2021-01-09 09:01:32.686 thread:[005] [发送]01 03 00 06 00 07 E4 09
[信息] 2021-01-09 09:01:32.686 thread:[005] [返回]01 03 0E 00 06 00 07 00 08 00 09 00 0A 00 0B 00 0C EB A1
[信息] 2021-01-09 09:02:26.868 thread:[005] [发送]01 03 00 06 00 07 E4 09
[信息] 2021-01-09 09:02:26.868 thread:[005] [返回]01 03 0E 00 06 00 07 00 08 00 09 00 0A 00 0B 00 0C EB A1
[信息] 2021-01-09 09:11:36.170 thread:[005] [发送]01 03 00 06 00 07 E4 09
[信息] 2021-01-09 09:11:36.170 thread:[005] [返回]01 03 0E 00 06 00 07 00 08 00 09 00 0A 00 0B 00 0C EB A1
[信息] 2021-01-09 10:42:14.972 thread:[005] [发送]01 03 00 06 00 07 E4 09
[信息] 2021-01-09 10:42:14.972 thread:[005] [返回]01 03 0E 00 06 00 07 00 08 00 09 00 0A 00 0B 00 0C EB A1
[信息] 2021-01-09 10:43:29.901 thread:[005] [发送]01 03 00 06 00 07 E4 09
[信息] 2021-01-09 10:43:29.901 thread:[005] [返回]01 03 0E 00 06 00 07 00 08 00 09 00 0A 00 0B 00 0C EB A1
[信息] 2021-01-09 10:43:52.803 thread:[005] [发送]01 03 00 06 00 07 E4 09
[信息] 2021-01-09 10:43:52.803 thread:[005] [返回]01 03 0E 00 06 00 07 00 08 00 09 00 0A 00 0B 00 0C EB A1
[信息] 2021-01-09 10:44:42.003 thread:[005] [发送]01 03 00 06 00 07 E4 09
[信息] 2021-01-09 10:44:42.003 thread:[005] [返回]01 03 0E 00 06 00 07 00 08 00 09 00 0A 00 0B 00 0C EB A1
[信息] 2021-01-09 10:45:21.540 thread:[005] [发送]01 03 00 06 00 07 E4 09
[信息] 2021-01-09 10:45:21.540 thread:[005] [返回]01 03 0E 00 06 00 07 00 08 00 09 00 0A 00 0B 00 0C EB A1
[信息] 2021-01-09 10:49:51.115 thread:[005] [发送]01 03 00 06 00 07 E4 09
[信息] 2021-01-09 10:49:51.115 thread:[005] [返回]01 03 0E 00 06 00 07 00 08 00 09 00 0A 00 0B 00 0C EB A1
[信息] 2021-01-09 10:49:57.989 thread:[005] [发送]01 03 00 0D 00 07 95 CB
[信息] 2021-01-09 10:49:57.989 thread:[005] [返回]01 03 0E 00 0D 00 0E 00 0F 00 10 00 11 00 12 00 13 85 4A
[信息] 2021-01-09 10:50:08.526 thread:[005] [发送]01 03 00 06 00 07 E4 09
[信息] 2021-01-09 10:50:08.526 thread:[005] [返回]01 03 0E 00 06 00 07 00 08 00 09 00 0A 00 0B 00 0C EB A1
[信息] 2021-01-09 10:50:14.068 thread:[005] [发送]01 03 00 0D 00 07 95 CB
[信息] 2021-01-09 10:50:14.068 thread:[005] [返回]01 03 0E 00 0D 00 0E 00 0F 00 10 00 11 00 12 00 13 85 4A
[信息] 2021-01-09 10:53:24.947 thread:[005] [发送]01 03 00 06 00 07 E4 09
[信息] 2021-01-09 10:53:24.947 thread:[005] [返回]01 03 0E 00 06 00 07 00 08 00 09 00 0A 00 0B 00 0C EB A1
[信息] 2021-01-09 10:54:15.221 thread:[005] [发送]01 03 00 0D 00 07 95 CB
[信息] 2021-01-09 10:54:15.221 thread:[005] [返回]01 03 0E 00 0D 00 0E 00 0F 00 10 00 11 00 12 00 13 85 4A
[信息] 2021-01-09 10:54:58.397 thread:[005] [发送]01 03 00 06 00 07 E4 09
[信息] 2021-01-09 10:54:58.397 thread:[005] [返回]01 03 0E 00 06 00 07 00 08 00 09 00 0A 00 0B 00 0C EB A1
[信息] 2021-01-09 10:55:03.115 thread:[005] [发送]01 03 00 0D 00 07 95 CB
[信息] 2021-01-09 10:55:03.115 thread:[005] [返回]01 03 0E 00 0D 00 0E 00 0F 00 10 00 11 00 12 00 13 85 4A
[信息] 2021-01-09 10:55:03.417 thread:[005] [发送]01 03 00 14 00 07 44 0C
[信息] 2021-01-09 10:55:03.417 thread:[005] [返回]01 03 0E 00 14 00 15 00 16 00 17 00 18 00 19 00 1A 6B 62
[信息] 2021-01-09 10:55:03.719 thread:[005] [发送]01 03 00 1B 00 07 74 0F
[信息] 2021-01-09 10:55:03.719 thread:[005] [返回]01 03 0E 00 1B 00 1C 00 1D 00 1E 00 1F 00 20 00 21 9F DF
[信息] 2021-01-09 10:55:04.021 thread:[005] [发送]01 03 00 22 00 07 A4 02
[信息] 2021-01-09 10:55:04.021 thread:[005] [返回]01 03 0E 00 22 00 23 00 24 00 25 00 26 00 27 00 28 55 A2
[信息] 2021-01-09 10:55:04.323 thread:[005] [发送]01 03 00 29 00 07 D5 C0
[信息] 2021-01-09 10:55:04.323 thread:[005] [返回]01 03 0E 00 29 00 2A 00 2B 00 2C 00 2D 00 2E 00 2F 8D 44
[信息] 2021-01-09 11:17:31.928 thread:[005] [发送]01 03 00 06 00 07 E4 09
[信息] 2021-01-09 11:17:31.928 thread:[005] [返回]01 03 0E 00 06 00 07 00 08 00 09 00 0A 00 0B 00 0C EB A1
[信息] 2021-01-09 11:17:32.232 thread:[005] [发送]01 03 00 0D 00 07 95 CB
[信息] 2021-01-09 11:17:32.232 thread:[005] [返回]01 03 0E 00 0D 00 0E 00 0F 00 10 00 11 00 12 00 13 85 4A
[信息] 2021-01-09 11:17:32.533 thread:[005] [发送]01 03 00 14 00 07 44 0C
[信息] 2021-01-09 11:17:32.533 thread:[005] [返回]01 03 0E 00 14 00 15 00 16 00 17 00 18 00 19 00 1A 6B 62
[信息] 2021-01-09 11:17:32.836 thread:[005] [发送]01 03 00 1B 00 07 74 0F
[信息] 2021-01-09 11:17:32.836 thread:[005] [返回]01 03 0E 00 1B 00 1C 00 1D 00 1E 00 1F 00 20 00 21 9F DF
[信息] 2021-01-09 11:17:33.138 thread:[005] [发送]01 03 00 22 00 07 A4 02
[信息] 2021-01-09 11:17:33.138 thread:[005] [返回]01 03 0E 00 22 00 23 00 24 00 25 00 26 00 27 00 28 55 A2
[信息] 2021-01-09 11:17:33.440 thread:[005] [发送]01 03 00 29 00 07 D5 C0
[信息] 2021-01-09 11:17:33.440 thread:[005] [返回]01 03 0E 00 29 00 2A 00 2B 00 2C 00 2D 00 2E 00 2F 8D 44
[信息] 2021-01-09 11:19:36.505 thread:[005] [发送]01 03 00 06 00 07 E4 09
[信息] 2021-01-09 11:19:36.505 thread:[005] [返回]01 03 0E 00 06 00 07 00 08 00 09 00 0A 00 0B 00 0C EB A1
[信息] 2021-01-09 11:19:36.808 thread:[005] [发送]01 03 00 0D 00 07 95 CB
[信息] 2021-01-09 11:19:36.808 thread:[005] [返回]01 03 0E 00 0D 00 0E 00 0F 00 10 00 11 00 12 00 13 85 4A
[信息] 2021-01-09 11:19:37.109 thread:[005] [发送]01 03 00 14 00 07 44 0C
[信息] 2021-01-09 11:19:37.109 thread:[005] [返回]01 03 0E 00 14 00 15 00 16 00 17 00 18 00 19 00 1A 6B 62
[信息] 2021-01-09 11:19:37.411 thread:[005] [发送]01 03 00 1B 00 07 74 0F
[信息] 2021-01-09 11:19:37.411 thread:[005] [返回]01 03 0E 00 1B 00 1C 00 1D 00 1E 00 1F 00 20 00 21 9F DF
[信息] 2021-01-09 11:19:37.714 thread:[005] [发送]01 03 00 22 00 07 A4 02
[信息] 2021-01-09 11:19:37.714 thread:[005] [返回]01 03 0E 00 22 00 23 00 24 00 25 00 26 00 27 00 28 55 A2
[信息] 2021-01-09 11:19:38.016 thread:[005] [发送]01 03 00 29 00 07 D5 C0
[信息] 2021-01-09 11:19:38.016 thread:[005] [返回]01 03 0E 00 29 00 2A 00 2B 00 2C 00 2D 00 2E 00 2F 8D 44
[信息] 2021-01-09 11:21:11.414 thread:[005] [发送]01 03 00 06 00 07 E4 09
[信息] 2021-01-09 11:21:11.414 thread:[005] [返回]01 03 0E 00 06 00 07 00 08 00 09 00 0A 00 0B 00 0C EB A1
[信息] 2021-01-09 11:21:11.717 thread:[005] [发送]01 03 00 0D 00 07 95 CB
[信息] 2021-01-09 11:21:11.717 thread:[005] [返回]01 03 0E 00 0D 00 0E 00 0F 00 10 00 11 00 12 00 13 85 4A
[信息] 2021-01-09 11:21:12.018 thread:[005] [发送]01 03 00 14 00 07 44 0C
[信息] 2021-01-09 11:21:12.018 thread:[005] [返回]01 03 0E 00 14 00 15 00 16 00 17 00 18 00 19 00 1A 6B 62
[信息] 2021-01-09 11:21:12.321 thread:[005] [发送]01 03 00 1B 00 07 74 0F
[信息] 2021-01-09 11:21:12.321 thread:[005] [返回]01 03 0E 00 1B 00 1C 00 1D 00 1E 00 1F 00 20 00 21 9F DF
[信息] 2021-01-09 11:21:12.625 thread:[005] [发送]01 03 00 22 00 07 A4 02
[信息] 2021-01-09 11:21:12.625 thread:[005] [返回]01 03 0E 00 22 00 23 00 24 00 25 00 26 00 27 00 28 55 A2
[信息] 2021-01-09 11:21:12.927 thread:[005] [发送]01 03 00 29 00 07 D5 C0
[信息] 2021-01-09 11:21:12.927 thread:[005] [返回]01 03 0E 00 29 00 2A 00 2B 00 2C 00 2D 00 2E 00 2F 8D 44
[信息] 2021-01-09 11:22:43.968 thread:[005] [发送]01 03 00 06 00 07 E4 09
[信息] 2021-01-09 11:22:43.969 thread:[005] [返回]01 03 0E 00 06 00 07 00 08 00 09 00 0A 00 0B 00 0C EB A1
[信息] 2021-01-09 11:22:44.273 thread:[005] [发送]01 03 00 0D 00 07 95 CB
[信息] 2021-01-09 11:22:44.273 thread:[005] [返回]01 03 0E 00 0D 00 0E 00 0F 00 10 00 11 00 12 00 13 85 4A
[信息] 2021-01-09 11:22:44.576 thread:[005] [发送]01 03 00 14 00 07 44 0C
[信息] 2021-01-09 11:22:44.576 thread:[005] [返回]01 03 0E 00 14 00 15 00 16 00 17 00 18 00 19 00 1A 6B 62
[信息] 2021-01-09 11:22:44.878 thread:[005] [发送]01 03 00 1B 00 07 74 0F
[信息] 2021-01-09 11:22:44.878 thread:[005] [返回]01 03 0E 00 1B 00 1C 00 1D 00 1E 00 1F 00 20 00 21 9F DF
[信息] 2021-01-09 11:22:45.182 thread:[005] [发送]01 03 00 22 00 07 A4 02
[信息] 2021-01-09 11:22:45.182 thread:[005] [返回]01 03 0E 00 22 00 23 00 24 00 25 00 26 00 27 00 28 55 A2
[信息] 2021-01-09 11:22:45.484 thread:[005] [发送]01 03 00 29 00 07 D5 C0
[信息] 2021-01-09 11:22:45.484 thread:[005] [返回]01 03 0E 00 29 00 2A 00 2B 00 2C 00 2D 00 2E 00 2F 8D 44
[信息] 2021-01-09 13:27:18.985 thread:[005] [发送]01 03 00 06 00 07 E4 09
[信息] 2021-01-09 13:27:18.985 thread:[005] [返回]01 03 0E 00 06 00 07 00 08 00 09 00 0A 00 0B 00 0C EB A1
[信息] 2021-01-09 13:27:19.293 thread:[005] [发送]01 03 00 0D 00 07 95 CB
[信息] 2021-01-09 13:27:19.293 thread:[005] [返回]01 03 0E 00 0D 00 0E 00 0F 00 10 00 11 00 12 00 13 85 4A
[信息] 2021-01-09 13:27:19.595 thread:[005] [发送]01 03 00 14 00 07 44 0C
[信息] 2021-01-09 13:27:19.595 thread:[005] [返回]01 03 0E 00 14 00 15 00 16 00 17 00 18 00 19 00 1A 6B 62
[信息] 2021-01-09 13:27:19.897 thread:[005] [发送]01 03 00 1B 00 07 74 0F
[信息] 2021-01-09 13:27:19.897 thread:[005] [返回]01 03 0E 00 1B 00 1C 00 1D 00 1E 00 1F 00 20 00 21 9F DF
[信息] 2021-01-09 13:27:20.199 thread:[005] [发送]01 03 00 22 00 07 A4 02
[信息] 2021-01-09 13:27:20.199 thread:[005] [返回]01 03 0E 00 22 00 23 00 24 00 25 00 26 00 27 00 28 55 A2
[信息] 2021-01-09 13:27:20.501 thread:[005] [发送]01 03 00 29 00 07 D5 C0
[信息] 2021-01-09 13:27:20.501 thread:[005] [返回]01 03 0E 00 29 00 2A 00 2B 00 2C 00 2D 00 2E 00 2F 8D 44
[信息] 2021-01-09 13:43:12.031 thread:[005] [发送]01 03 00 06 00 07 E4 09
[信息] 2021-01-09 13:43:12.031 thread:[005] [返回]01 03 0E 00 06 00 07 00 08 00 09 00 0A 00 0B 00 0C EB A1
[信息] 2021-01-09 13:43:12.335 thread:[005] [发送]01 03 00 0D 00 07 95 CB
[信息] 2021-01-09 13:43:12.335 thread:[005] [返回]01 03 0E 00 0D 00 0E 00 0F 00 10 00 11 00 12 00 13 85 4A
[信息] 2021-01-09 13:43:12.638 thread:[005] [发送]01 03 00 14 00 07 44 0C
[信息] 2021-01-09 13:43:12.638 thread:[005] [返回]01 03 0E 00 14 00 15 00 16 00 17 00 18 00 19 00 1A 6B 62
[信息] 2021-01-09 13:43:12.940 thread:[005] [发送]01 03 00 1B 00 07 74 0F
[信息] 2021-01-09 13:43:12.940 thread:[005] [返回]01 03 0E 00 1B 00 1C 00 1D 00 1E 00 1F 00 20 00 21 9F DF
[信息] 2021-01-09 13:43:13.244 thread:[005] [发送]01 03 00 22 00 07 A4 02
[信息] 2021-01-09 13:43:13.244 thread:[005] [返回]01 03 0E 00 22 00 23 00 24 00 25 00 26 00 27 00 28 55 A2
[信息] 2021-01-09 13:43:13.548 thread:[005] [发送]01 03 00 29 00 07 D5 C0
[信息] 2021-01-09 13:43:13.548 thread:[005] [返回]01 03 0E 00 29 00 2A 00 2B 00 2C 00 2D 00 2E 00 2F 8D 44
[信息] 2021-01-09 14:24:42.068 thread:[005] [发送]01 03 00 06 00 07 E4 09
[信息] 2021-01-09 14:24:42.068 thread:[005] [返回]01 03 0E 00 06 00 07 00 08 00 09 00 0A 00 0B 00 0C EB A1
[信息] 2021-01-09 14:24:42.372 thread:[005] [发送]01 03 00 0D 00 07 95 CB
[信息] 2021-01-09 14:24:42.372 thread:[005] [返回]01 03 0E 00 0D 00 0E 00 0F 00 10 00 11 00 12 00 13 85 4A
[信息] 2021-01-09 14:24:42.675 thread:[005] [发送]01 03 00 14 00 07 44 0C
[信息] 2021-01-09 14:24:42.675 thread:[005] [返回]01 03 0E 00 14 00 15 00 16 00 17 00 18 00 19 00 1A 6B 62
[信息] 2021-01-09 14:24:42.978 thread:[005] [发送]01 03 00 1B 00 07 74 0F
[信息] 2021-01-09 14:24:42.978 thread:[005] [返回]01 03 0E 00 1B 00 1C 00 1D 00 1E 00 1F 00 20 00 21 9F DF
[信息] 2021-01-09 14:24:43.279 thread:[005] [发送]01 03 00 22 00 07 A4 02
[信息] 2021-01-09 14:24:43.279 thread:[005] [返回]01 03 0E 00 22 00 23 00 24 00 25 00 26 00 27 00 28 55 A2
[信息] 2021-01-09 14:24:43.583 thread:[005] [发送]01 03 00 29 00 07 D5 C0
[信息] 2021-01-09 14:24:43.583 thread:[005] [返回]01 03 0E 00 29 00 2A 00 2B 00 2C 00 2D 00 2E 00 2F 8D 44
[信息] 2021-01-09 14:38:20.601 thread:[005] [发送]01 03 00 06 00 07 E4 09
[信息] 2021-01-09 14:38:20.601 thread:[005] [返回]01 03 0E 00 06 00 07 00 08 00 09 00 0A 00 0B 00 0C EB A1
[信息] 2021-01-09 14:38:20.906 thread:[005] [发送]01 03 00 0D 00 07 95 CB
[信息] 2021-01-09 14:38:20.906 thread:[005] [返回]01 03 0E 00 0D 00 0E 00 0F 00 10 00 11 00 12 00 13 85 4A
[信息] 2021-01-09 14:38:21.209 thread:[005] [发送]01 03 00 14 00 07 44 0C
[信息] 2021-01-09 14:38:21.209 thread:[005] [返回]01 03 0E 00 14 00 15 00 16 00 17 00 18 00 19 00 1A 6B 62
[信息] 2021-01-09 14:38:21.510 thread:[005] [发送]01 03 00 1B 00 07 74 0F
[信息] 2021-01-09 14:38:21.510 thread:[005] [返回]01 03 0E 00 1B 00 1C 00 1D 00 1E 00 1F 00 20 00 21 9F DF
[信息] 2021-01-09 14:38:21.813 thread:[005] [发送]01 03 00 22 00 07 A4 02
[信息] 2021-01-09 14:38:21.813 thread:[005] [返回]01 03 0E 00 22 00 23 00 24 00 25 00 26 00 27 00 28 55 A2
[信息] 2021-01-09 14:38:22.114 thread:[005] [发送]01 03 00 29 00 07 D5 C0
[信息] 2021-01-09 14:38:22.114 thread:[005] [返回]01 03 0E 00 29 00 2A 00 2B 00 2C 00 2D 00 2E 00 2F 8D 44
[信息] 2021-01-09 14:42:55.810 thread:[005] [发送]01 03 00 06 00 07 E4 09
[信息] 2021-01-09 14:42:55.811 thread:[005] [返回]01 03 0E 00 06 00 07 00 08 00 09 00 0A 00 0B 00 0C EB A1
[信息] 2021-01-09 14:42:56.146 thread:[005] [发送]01 03 00 0D 00 07 95 CB
[信息] 2021-01-09 14:42:56.146 thread:[005] [返回]01 03 0E 00 0D 00 0E 00 0F 00 10 00 11 00 12 00 13 85 4A
[信息] 2021-01-09 14:42:56.449 thread:[005] [发送]01 03 00 14 00 07 44 0C
[信息] 2021-01-09 14:42:56.449 thread:[005] [返回]01 03 0E 00 14 00 15 00 16 00 17 00 18 00 19 00 1A 6B 62
[信息] 2021-01-09 14:42:56.751 thread:[005] [发送]01 03 00 1B 00 07 74 0F
[信息] 2021-01-09 14:42:56.751 thread:[005] [返回]01 03 0E 00 1B 00 1C 00 1D 00 1E 00 1F 00 20 00 21 9F DF
[信息] 2021-01-09 14:42:57.054 thread:[005] [发送]01 03 00 22 00 07 A4 02
[信息] 2021-01-09 14:42:57.054 thread:[005] [返回]01 03 0E 00 22 00 23 00 24 00 25 00 26 00 27 00 28 55 A2
[信息] 2021-01-09 14:42:57.357 thread:[005] [发送]01 03 00 29 00 07 D5 C0
[信息] 2021-01-09 14:42:57.357 thread:[005] [返回]01 03 0E 00 29 00 2A 00 2B 00 2C 00 2D 00 2E 00 2F 8D 44
[信息] 2021-01-09 14:44:53.193 thread:[005] [发送]01 03 00 06 00 07 E4 09
[信息] 2021-01-09 14:44:53.194 thread:[005] [返回]01 03 0E 00 06 00 07 00 08 00 09 00 0A 00 0B 00 0C EB A1
[信息] 2021-01-09 14:44:53.498 thread:[005] [发送]01 03 00 0D 00 07 95 CB
[信息] 2021-01-09 14:44:53.498 thread:[005] [返回]01 03 0E 00 0D 00 0E 00 0F 00 10 00 11 00 12 00 13 85 4A
[信息] 2021-01-09 14:44:53.800 thread:[005] [发送]01 03 00 14 00 07 44 0C
[信息] 2021-01-09 14:44:53.800 thread:[005] [返回]01 03 0E 00 14 00 15 00 16 00 17 00 18 00 19 00 1A 6B 62
[信息] 2021-01-09 14:44:54.103 thread:[005] [发送]01 03 00 1B 00 07 74 0F
[信息] 2021-01-09 14:44:54.103 thread:[005] [返回]01 03 0E 00 1B 00 1C 00 1D 00 1E 00 1F 00 20 00 21 9F DF
[信息] 2021-01-09 14:44:54.405 thread:[005] [发送]01 03 00 22 00 07 A4 02
[信息] 2021-01-09 14:44:54.405 thread:[005] [返回]01 03 0E 00 22 00 23 00 24 00 25 00 26 00 27 00 28 55 A2
[信息] 2021-01-09 14:44:54.709 thread:[005] [发送]01 03 00 29 00 07 D5 C0
[信息] 2021-01-09 14:44:54.709 thread:[005] [返回]01 03 0E 00 29 00 2A 00 2B 00 2C 00 2D 00 2E 00 2F 8D 44
[信息] 2021-01-09 14:54:35.273 thread:[005] [发送]01 03 00 06 00 07 E4 09
[信息] 2021-01-09 14:54:35.273 thread:[005] [返回]01 03 0E 00 06 00 07 00 08 00 09 00 0A 00 0B 00 0C EB A1
[信息] 2021-01-09 14:54:35.577 thread:[005] [发送]01 03 00 0D 00 07 95 CB
[信息] 2021-01-09 14:54:35.577 thread:[005] [返回]01 03 0E 00 0D 00 0E 00 0F 00 10 00 11 00 12 00 13 85 4A
[信息] 2021-01-09 14:54:35.879 thread:[005] [发送]01 03 00 14 00 07 44 0C
[信息] 2021-01-09 14:54:35.879 thread:[005] [返回]01 03 0E 00 14 00 15 00 16 00 17 00 18 00 19 00 1A 6B 62
[信息] 2021-01-09 14:54:36.182 thread:[005] [发送]01 03 00 1B 00 07 74 0F
[信息] 2021-01-09 14:54:36.182 thread:[005] [返回]01 03 0E 00 1B 00 1C 00 1D 00 1E 00 1F 00 20 00 21 9F DF
[信息] 2021-01-09 14:54:36.485 thread:[005] [发送]01 03 00 22 00 07 A4 02
[信息] 2021-01-09 14:54:36.485 thread:[005] [返回]01 03 0E 00 22 00 23 00 24 00 25 00 26 00 27 00 28 55 A2
[信息] 2021-01-09 14:54:36.786 thread:[005] [发送]01 03 00 29 00 07 D5 C0
[信息] 2021-01-09 14:54:36.786 thread:[005] [返回]01 03 0E 00 29 00 2A 00 2B 00 2C 00 2D 00 2E 00 2F 8D 44
[信息] 2021-01-09 14:54:56.178 thread:[005] [发送]01 03 00 06 00 07 E4 09
[信息] 2021-01-09 14:54:56.178 thread:[005] [返回]01 03 0E 00 06 00 07 00 08 00 09 00 0A 00 0B 00 0C EB A1
[信息] 2021-01-09 14:54:56.483 thread:[005] [发送]01 03 00 0D 00 07 95 CB
[信息] 2021-01-09 14:54:56.483 thread:[005] [返回]01 03 0E 00 0D 00 0E 00 0F 00 10 00 11 00 12 00 13 85 4A
[信息] 2021-01-09 14:54:56.785 thread:[005] [发送]01 03 00 14 00 07 44 0C
[信息] 2021-01-09 14:54:56.785 thread:[005] [返回]01 03 0E 00 14 00 15 00 16 00 17 00 18 00 19 00 1A 6B 62
[信息] 2021-01-09 14:54:57.089 thread:[005] [发送]01 03 00 1B 00 07 74 0F
[信息] 2021-01-09 14:54:57.089 thread:[005] [返回]01 03 0E 00 1B 00 1C 00 1D 00 1E 00 1F 00 20 00 21 9F DF
[信息] 2021-01-09 14:54:57.392 thread:[005] [发送]01 03 00 22 00 07 A4 02
[信息] 2021-01-09 14:54:57.392 thread:[005] [返回]01 03 0E 00 22 00 23 00 24 00 25 00 26 00 27 00 28 55 A2
[信息] 2021-01-09 14:54:57.695 thread:[005] [发送]01 03 00 29 00 07 D5 C0
[信息] 2021-01-09 14:54:57.695 thread:[005] [返回]01 03 0E 00 29 00 2A 00 2B 00 2C 00 2D 00 2E 00 2F 8D 44
[信息] 2021-01-09 14:55:28.138 thread:[005] [发送]01 03 00 06 00 07 E4 09
[信息] 2021-01-09 14:55:28.138 thread:[005] [返回]01 03 0E 00 06 00 07 00 08 00 09 00 0A 00 0B 00 0C EB A1
[信息] 2021-01-09 14:55:28.441 thread:[005] [发送]01 03 00 0D 00 07 95 CB
[信息] 2021-01-09 14:55:28.441 thread:[005] [返回]01 03 0E 00 0D 00 0E 00 0F 00 10 00 11 00 12 00 13 85 4A
[信息] 2021-01-09 14:55:28.743 thread:[005] [发送]01 03 00 14 00 07 44 0C
[信息] 2021-01-09 14:55:28.743 thread:[005] [返回]01 03 0E 00 14 00 15 00 16 00 17 00 18 00 19 00 1A 6B 62
[信息] 2021-01-09 14:55:29.045 thread:[005] [发送]01 03 00 1B 00 07 74 0F
[信息] 2021-01-09 14:55:29.045 thread:[005] [返回]01 03 0E 00 1B 00 1C 00 1D 00 1E 00 1F 00 20 00 21 9F DF
[信息] 2021-01-09 14:55:29.348 thread:[005] [发送]01 03 00 22 00 07 A4 02
[信息] 2021-01-09 14:55:29.348 thread:[005] [返回]01 03 0E 00 22 00 23 00 24 00 25 00 26 00 27 00 28 55 A2
[信息] 2021-01-09 14:55:29.650 thread:[005] [发送]01 03 00 29 00 07 D5 C0
[信息] 2021-01-09 14:55:29.650 thread:[005] [返回]01 03 0E 00 29 00 2A 00 2B 00 2C 00 2D 00 2E 00 2F 8D 44
[信息] 2021-01-09 14:55:31.001 thread:[009] [发送]01 03 00 06 00 07 E4 09
[信息] 2021-01-09 14:55:31.001 thread:[009] [返回]01 03 0E 00 06 00 07 00 08 00 09 00 0A 00 0B 00 0C EB A1
[信息] 2021-01-09 14:55:31.303 thread:[009] [发送]01 03 00 0D 00 07 95 CB
[信息] 2021-01-09 14:55:31.303 thread:[009] [返回]01 03 0E 00 0D 00 0E 00 0F 00 10 00 11 00 12 00 13 85 4A
[信息] 2021-01-09 14:55:31.606 thread:[009] [发送]01 03 00 14 00 07 44 0C
[信息] 2021-01-09 14:55:31.606 thread:[009] [返回]01 03 0E 00 14 00 15 00 16 00 17 00 18 00 19 00 1A 6B 62
[信息] 2021-01-09 14:55:31.909 thread:[009] [发送]01 03 00 1B 00 07 74 0F
[信息] 2021-01-09 14:55:31.909 thread:[009] [返回]01 03 0E 00 1B 00 1C 00 1D 00 1E 00 1F 00 20 00 21 9F DF
[信息] 2021-01-09 14:55:32.211 thread:[009] [发送]01 03 00 22 00 07 A4 02
[信息] 2021-01-09 14:55:32.211 thread:[009] [返回]01 03 0E 00 22 00 23 00 24 00 25 00 26 00 27 00 28 55 A2
[信息] 2021-01-09 14:55:32.513 thread:[009] [发送]01 03 00 29 00 07 D5 C0
[信息] 2021-01-09 14:55:32.513 thread:[009] [返回]01 03 0E 00 29 00 2A 00 2B 00 2C 00 2D 00 2E 00 2F 8D 44
[信息] 2021-01-09 14:55:34.954 thread:[010] [发送]01 03 00 06 00 07 E4 09
[信息] 2021-01-09 14:55:34.954 thread:[010] [返回]01 03 0E 00 06 00 07 00 08 00 09 00 0A 00 0B 00 0C EB A1
[信息] 2021-01-09 14:55:35.257 thread:[010] [发送]01 03 00 0D 00 07 95 CB
[信息] 2021-01-09 14:55:35.257 thread:[010] [返回]01 03 0E 00 0D 00 0E 00 0F 00 10 00 11 00 12 00 13 85 4A
[信息] 2021-01-09 14:55:35.560 thread:[010] [发送]01 03 00 14 00 07 44 0C
[信息] 2021-01-09 14:55:35.560 thread:[010] [返回]01 03 0E 00 14 00 15 00 16 00 17 00 18 00 19 00 1A 6B 62
[信息] 2021-01-09 14:55:35.862 thread:[010] [发送]01 03 00 1B 00 07 74 0F
[信息] 2021-01-09 14:55:35.862 thread:[010] [返回]01 03 0E 00 1B 00 1C 00 1D 00 1E 00 1F 00 20 00 21 9F DF
[信息] 2021-01-09 14:55:36.167 thread:[010] [发送]01 03 00 22 00 07 A4 02
[信息] 2021-01-09 14:55:36.167 thread:[010] [返回]01 03 0E 00 22 00 23 00 24 00 25 00 26 00 27 00 28 55 A2
[信息] 2021-01-09 14:55:36.469 thread:[010] [发送]01 03 00 29 00 07 D5 C0
[信息] 2021-01-09 14:55:36.469 thread:[010] [返回]01 03 0E 00 29 00 2A 00 2B 00 2C 00 2D 00 2E 00 2F 8D 44
[信息] 2021-01-09 14:55:41.081 thread:[011] [发送]01 03 00 06 00 07 E4 09
[信息] 2021-01-09 14:55:41.081 thread:[011] [返回]01 03 0E 00 06 00 07 00 08 00 09 00 0A 00 0B 00 0C EB A1
[信息] 2021-01-09 14:55:41.383 thread:[011] [发送]01 03 00 0D 00 07 95 CB
[信息] 2021-01-09 14:55:41.383 thread:[011] [返回]01 03 0E 00 0D 00 0E 00 0F 00 10 00 11 00 12 00 13 85 4A
[信息] 2021-01-09 14:55:41.685 thread:[011] [发送]01 03 00 14 00 07 44 0C
[信息] 2021-01-09 14:55:41.685 thread:[011] [返回]01 03 0E 00 14 00 15 00 16 00 17 00 18 00 19 00 1A 6B 62
[信息] 2021-01-09 14:55:41.987 thread:[011] [发送]01 03 00 1B 00 07 74 0F
[信息] 2021-01-09 14:55:41.987 thread:[011] [返回]01 03 0E 00 1B 00 1C 00 1D 00 1E 00 1F 00 20 00 21 9F DF
[信息] 2021-01-09 14:55:42.290 thread:[011] [发送]01 03 00 22 00 07 A4 02
[信息] 2021-01-09 14:55:42.290 thread:[011] [返回]01 03 0E 00 22 00 23 00 24 00 25 00 26 00 27 00 28 55 A2
[信息] 2021-01-09 14:55:42.592 thread:[011] [发送]01 03 00 29 00 07 D5 C0
[信息] 2021-01-09 14:55:42.592 thread:[011] [返回]01 03 0E 00 29 00 2A 00 2B 00 2C 00 2D 00 2E 00 2F 8D 44
[信息] 2021-01-09 14:55:49.346 thread:[010] [发送]01 03 00 06 00 07 E4 09
[信息] 2021-01-09 14:55:49.346 thread:[010] [返回]01 03 0E 00 06 00 07 00 08 00 09 00 0A 00 0B 00 0C EB A1
[信息] 2021-01-09 14:55:49.649 thread:[010] [发送]01 03 00 0D 00 07 95 CB
[信息] 2021-01-09 14:55:49.649 thread:[010] [返回]01 03 0E 00 0D 00 0E 00 0F 00 10 00 11 00 12 00 13 85 4A
[信息] 2021-01-09 14:55:49.951 thread:[010] [发送]01 03 00 14 00 07 44 0C
[信息] 2021-01-09 14:55:49.951 thread:[010] [返回]01 03 0E 00 14 00 15 00 16 00 17 00 18 00 19 00 1A 6B 62
[信息] 2021-01-09 14:55:50.253 thread:[010] [发送]01 03 00 1B 00 07 74 0F
[信息] 2021-01-09 14:55:50.253 thread:[010] [返回]01 03 0E 00 1B 00 1C 00 1D 00 1E 00 1F 00 20 00 21 9F DF
[信息] 2021-01-09 14:55:50.556 thread:[010] [发送]01 03 00 22 00 07 A4 02
[信息] 2021-01-09 14:55:50.556 thread:[010] [返回]01 03 0E 00 22 00 23 00 24 00 25 00 26 00 27 00 28 55 A2
[信息] 2021-01-09 14:55:50.859 thread:[010] [发送]01 03 00 29 00 07 D5 C0
[信息] 2021-01-09 14:55:50.859 thread:[010] [返回]01 03 0E 00 29 00 2A 00 2B 00 2C 00 2D 00 2E 00 2F 8D 44
[信息] 2021-01-09 14:56:04.377 thread:[006] [发送]01 03 00 06 00 07 E4 09
[信息] 2021-01-09 14:56:04.377 thread:[006] [返回]01 03 0E 00 06 00 07 00 08 00 09 00 0A 00 0B 00 0C EB A1
[信息] 2021-01-09 14:56:04.684 thread:[006] [发送]01 03 00 0D 00 07 95 CB
[信息] 2021-01-09 14:56:04.684 thread:[006] [返回]01 03 0E 00 0D 00 0E 00 0F 00 10 00 11 00 12 00 13 85 4A
[信息] 2021-01-09 14:56:04.987 thread:[006] [发送]01 03 00 14 00 07 44 0C
[信息] 2021-01-09 14:56:04.987 thread:[006] [返回]01 03 0E 00 14 00 15 00 16 00 17 00 18 00 19 00 1A 6B 62
[信息] 2021-01-09 14:56:05.289 thread:[006] [发送]01 03 00 1B 00 07 74 0F
[信息] 2021-01-09 14:56:05.289 thread:[006] [返回]01 03 0E 00 1B 00 1C 00 1D 00 1E 00 1F 00 20 00 21 9F DF
[信息] 2021-01-09 14:56:05.593 thread:[006] [发送]01 03 00 22 00 07 A4 02
[信息] 2021-01-09 14:56:05.593 thread:[006] [返回]01 03 0E 00 22 00 23 00 24 00 25 00 26 00 27 00 28 55 A2
[信息] 2021-01-09 14:56:05.895 thread:[006] [发送]01 03 00 29 00 07 D5 C0
[信息] 2021-01-09 14:56:05.895 thread:[006] [返回]01 03 0E 00 29 00 2A 00 2B 00 2C 00 2D 00 2E 00 2F 8D 44
[信息] 2021-01-09 16:58:33.341 thread:[005] [发送]01 03 00 06 00 07 E4 09
[信息] 2021-01-09 16:58:33.342 thread:[005] [返回]01 03 0E 00 06 00 07 00 08 00 09 00 0A 00 0B 00 0C EB A1
[信息] 2021-01-09 16:58:33.647 thread:[005] [发送]01 03 00 0D 00 07 95 CB
[信息] 2021-01-09 16:58:33.647 thread:[005] [返回]01 03 0E 00 0D 00 0E 00 0F 00 10 00 11 00 12 00 13 85 4A
[信息] 2021-01-09 16:58:33.949 thread:[005] [发送]01 03 00 14 00 07 44 0C
[信息] 2021-01-09 16:58:33.949 thread:[005] [返回]01 03 0E 00 14 00 15 00 16 00 17 00 18 00 19 00 1A 6B 62
[信息] 2021-01-09 16:58:34.251 thread:[005] [发送]01 03 00 1B 00 07 74 0F
[信息] 2021-01-09 16:58:34.251 thread:[005] [返回]01 03 0E 00 1B 00 1C 00 1D 00 1E 00 1F 00 20 00 21 9F DF
[信息] 2021-01-09 16:58:34.554 thread:[005] [发送]01 03 00 22 00 07 A4 02
[信息] 2021-01-09 16:58:34.554 thread:[005] [返回]01 03 0E 00 22 00 23 00 24 00 25 00 26 00 27 00 28 55 A2
[信息] 2021-01-09 16:58:34.857 thread:[005] [发送]01 03 00 29 00 07 D5 C0
[信息] 2021-01-09 16:58:34.857 thread:[005] [返回]01 03 0E 00 29 00 2A 00 2B 00 2C 00 2D 00 2E 00 2F 8D 44
[信息] 2021-01-09 17:04:13.798 thread:[006] [发送]01 03 00 06 00 07 E4 09
[信息] 2021-01-09 17:04:13.798 thread:[006] [返回]01 03 0E 00 06 00 07 00 08 00 09 00 0A 00 0B 00 0C EB A1
[信息] 2021-01-09 17:04:14.100 thread:[006] [发送]01 03 00 0D 00 07 95 CB
[信息] 2021-01-09 17:04:14.100 thread:[006] [返回]01 03 0E 00 0D 00 0E 00 0F 00 10 00 11 00 12 00 13 85 4A
[信息] 2021-01-09 17:04:14.404 thread:[006] [发送]01 03 00 14 00 07 44 0C
[信息] 2021-01-09 17:04:14.404 thread:[006] [返回]01 03 0E 00 14 00 15 00 16 00 17 00 18 00 19 00 1A 6B 62
[信息] 2021-01-09 17:04:14.706 thread:[006] [发送]01 03 00 1B 00 07 74 0F
[信息] 2021-01-09 17:04:14.706 thread:[006] [返回]01 03 0E 00 1B 00 1C 00 1D 00 1E 00 1F 00 20 00 21 9F DF
[信息] 2021-01-09 17:04:15.009 thread:[006] [发送]01 03 00 22 00 07 A4 02
[信息] 2021-01-09 17:04:15.009 thread:[006] [返回]01 03 0E 00 22 00 23 00 24 00 25 00 26 00 27 00 28 55 A2
[信息] 2021-01-09 17:04:15.310 thread:[006] [发送]01 03 00 29 00 07 D5 C0
[信息] 2021-01-09 17:04:15.310 thread:[006] [返回]01 03 0E 00 29 00 2A 00 2B 00 2C 00 2D 00 2E 00 2F 8D 44
