[信息] 2021-01-21 15:01:25.033 thread:[005] [发送]01 03 00 06 00 07 E4 09
[信息] 2021-01-21 15:06:16.778 thread:[003] [发送]01 03 00 06 00 07 E4 09
[信息] 2021-01-21 15:06:39.351 thread:[003] [发送]01 03 00 06 00 07 E4 09
[信息] 2021-01-21 15:06:40.301 thread:[003] [发送]01 03 00 0D 00 07 95 CB
[信息] 2021-01-21 15:06:41.682 thread:[003] [发送]01 03 00 14 00 07 44 0C
[信息] 2021-01-21 15:06:42.319 thread:[003] [发送]01 03 00 1B 00 07 74 0F
[信息] 2021-01-21 15:06:42.728 thread:[003] [发送]01 03 00 22 00 07 A4 02
[信息] 2021-01-21 15:06:43.128 thread:[003] [发送]01 03 00 29 00 07 D5 C0
[信息] 2021-01-21 15:06:43.626 thread:[003] [发送]01 03 00 29 00 07 D5 C0
[信息] 2021-01-21 15:06:44.394 thread:[003] [发送]01 03 00 29 00 07 D5 C0
[信息] 2021-01-21 15:06:45.017 thread:[003] [发送]01 03 00 29 30 06
[信息] 2021-01-21 15:07:14.906 thread:[003] [发送]01 03 00 06 00 07 E4 09
[信息] 2021-01-21 15:07:25.813 thread:[006] [发送]01 03 00 06 00 07 E4 09
[信息] 2021-01-21 16:10:26.443 thread:[003] [发送]01 03 00 06 00 07 E4 09
